
**** 11/09/15 16:50:34 *********** Evaluation PSpice (Nov 1999) **************

 Self bias circuit. Measure Ic and Vce


 ****     CIRCUIT DESCRIPTION


******************************************************************************



 
Vcc 3 0 20
Rc 2 3 20k
Rb 1 2 200k
Q1 2 1 0 Q2N2222

.op
.lib nom.lib
.probe
.end

**** 11/09/15 16:50:34 *********** Evaluation PSpice (Nov 1999) **************

 Self bias circuit. Measure Ic and Vce


 ****     BJT MODEL PARAMETERS


******************************************************************************




               Q2N2222         
               NPN             
          IS   14.340000E-15 
          BF  255.9          
          NF    1            
         VAF   74.03         
         IKF     .2847       
         ISE   14.340000E-15 
          NE    1.307        
          BR    6.092        
          NR    1            
          RB   10            
          RC    1            
         CJE   22.010000E-12 
         MJE     .377        
         CJC    7.306000E-12 
         MJC     .3416       
          TF  411.100000E-12 
         XTF    3            
         VTF    1.7          
         ITF     .6          
          TR   46.910000E-09 
         XTB    1.5          
          CN    2.42         
           D     .87         


**** 11/09/15 16:50:34 *********** Evaluation PSpice (Nov 1999) **************

 Self bias circuit. Measure Ic and Vce


 ****     SMALL SIGNAL BIAS SOLUTION       TEMPERATURE =   27.000 DEG C


******************************************************************************



 NODE   VOLTAGE     NODE   VOLTAGE     NODE   VOLTAGE     NODE   VOLTAGE


(    1)     .6428  (    2)    1.8567  (    3)   20.0000  




    VOLTAGE SOURCE CURRENTS
    NAME         CURRENT

    Vcc         -9.072E-04

    TOTAL POWER DISSIPATION   1.81E-02  WATTS


**** 11/09/15 16:50:34 *********** Evaluation PSpice (Nov 1999) **************

 Self bias circuit. Measure Ic and Vce


 ****     OPERATING POINT INFORMATION      TEMPERATURE =   27.000 DEG C


******************************************************************************






**** BIPOLAR JUNCTION TRANSISTORS


NAME         Q1        
MODEL        Q2N2222   
IB           6.07E-06 
IC           9.01E-04 
VBE          6.43E-01 
VBC         -1.21E+00 
VCE          1.86E+00 
BETADC       1.48E+02 
GM           3.47E-02 
RPI          4.74E+03 
RX           1.00E+01 
RO           8.35E+04 
CBE          5.06E-11 
CBC          5.26E-12 
CJS          0.00E+00 
BETAAC       1.64E+02 
CBX/CBX2     0.00E+00 
FT/FT2       9.90E+07 



          JOB CONCLUDED

          TOTAL JOB TIME             .03
