
**** 11/09/15 22:08:39 *********** Evaluation PSpice (Nov 1999) **************

 Frequency Response of two stage RC coupled BJT amplifier(pnp) without feedbeck resistance


 ****     CIRCUIT DESCRIPTION


******************************************************************************




Q11 5 3 4 Q2N3906
Q22 9 7 8 Q2N3906
R1 3 6 200k
R2 3 0 50k
Rc1 5 6 12k
Rc2 9 6 6.8k
Re1 4 0 3.6k
Re2 8 0 3.6k
Rs 1 2 150
RL 10 0 10k
Rl1 7 6 120k
R22 7 0 30k
Cc1 2 3 10u
Cc2 5 7 25u
Cc3 9 10 10u
Ce1 4 0 10u
Ce2 8 0 25u
Vcc 6 0 15V
Vin 1 0 ac 0.1mV sin(0 0.1mV 1k)

.tran 50u 4m 50u
.ac dec 10 1 20k
.lib nom.lib
.probe
.end

**** 11/09/15 22:08:39 *********** Evaluation PSpice (Nov 1999) **************

 Frequency Response of two stage RC coupled BJT amplifier(pnp) without feedbeck resistance


 ****     BJT MODEL PARAMETERS


******************************************************************************




               Q2N3906         
               PNP             
          IS    1.410000E-15 
          BF  180.7          
          NF    1            
         VAF   18.7          
         IKF     .08         
          BR    4.977        
          NR    1            
          RB   10            
          RC    2.5          
         CJE    8.063000E-12 
         MJE     .3677       
         CJC    9.728000E-12 
         MJC     .5776       
          TF  179.300000E-12 
         XTF    6            
         VTF    4            
         ITF     .4          
          TR   33.420000E-09 
         XTB    1.5          
          CN    2.2          
           D     .52         


**** 11/09/15 22:08:39 *********** Evaluation PSpice (Nov 1999) **************

 Frequency Response of two stage RC coupled BJT amplifier(pnp) without feedbeck resistance


 ****     SMALL SIGNAL BIAS SOLUTION       TEMPERATURE =   27.000 DEG C


******************************************************************************



 NODE   VOLTAGE     NODE   VOLTAGE     NODE   VOLTAGE     NODE   VOLTAGE


(    1)    0.0000  (    2)    0.0000  (    3)    7.1302  (    4)    1.7819      

(    5)    7.8213  (    6)   15.0000  (    7)    7.2768  (    8)    3.0729      

(    9)    7.9839  (   10)    0.0000  




    VOLTAGE SOURCE CURRENTS
    NAME         CURRENT

    Vcc         -1.734E-03
    Vin          0.000E+00

    TOTAL POWER DISSIPATION   2.60E-02  WATTS


**** 11/09/15 22:08:39 *********** Evaluation PSpice (Nov 1999) **************

 Frequency Response of two stage RC coupled BJT amplifier(pnp) without feedbeck resistance


 ****     INITIAL TRANSIENT SOLUTION       TEMPERATURE =   27.000 DEG C


******************************************************************************



 NODE   VOLTAGE     NODE   VOLTAGE     NODE   VOLTAGE     NODE   VOLTAGE


(    1)    0.0000  (    2)    0.0000  (    3)    7.1302  (    4)    1.7819      

(    5)    7.8213  (    6)   15.0000  (    7)    7.2768  (    8)    3.0729      

(    9)    7.9839  (   10)    0.0000  




    VOLTAGE SOURCE CURRENTS
    NAME         CURRENT

    Vcc         -1.734E-03
    Vin          0.000E+00

    TOTAL POWER DISSIPATION   2.60E-02  WATTS



          JOB CONCLUDED

          TOTAL JOB TIME             .03
