
**** 11/18/15 22:30:25 *********** Evaluation PSpice (Nov 1999) **************

 double tuned amplifier


 ****     CIRCUIT DESCRIPTION


******************************************************************************




Vin 1 0 ac 10m
Vcc 0 6 15
Rs 1 2 500
Ls 2 0 1m
Cs 2 0 1n
Cc1 2 3 1u
R2 4 0 5k
L2 3 4 1m
L3 3 5 1m
R1 5 6 47k
Ce 6 7 1u
Re 6 7 10k
Le 6 7 1n
Cc2 7 8 1u
RL 8 0 20k
Rc 9 0 2k
Cc3 9 0 10u
Q1 7 3 9 Q2N3906
.lib nom.lib
.ac dec 10 10 20MEG
.probe
.end

**** 11/18/15 22:30:25 *********** Evaluation PSpice (Nov 1999) **************

 double tuned amplifier


 ****     BJT MODEL PARAMETERS


******************************************************************************




               Q2N3906         
               PNP             
          IS    1.410000E-15 
          BF  180.7          
          NF    1            
         VAF   18.7          
         IKF     .08         
          BR    4.977        
          NR    1            
          RB   10            
          RC    2.5          
         CJE    8.063000E-12 
         MJE     .3677       
         CJC    9.728000E-12 
         MJC     .5776       
          TF  179.300000E-12 
         XTF    6            
         VTF    4            
         ITF     .4          
          TR   33.420000E-09 
         XTB    1.5          
          CN    2.2          
           D     .52         


**** 11/18/15 22:30:25 *********** Evaluation PSpice (Nov 1999) **************

 double tuned amplifier


 ****     SMALL SIGNAL BIAS SOLUTION       TEMPERATURE =   27.000 DEG C


******************************************************************************



 NODE   VOLTAGE     NODE   VOLTAGE     NODE   VOLTAGE     NODE   VOLTAGE


(    1)    0.0000  (    2)    0.0000  (    3)   -1.4367  (    4)   -1.4367      

(    5)   -1.4367  (    6)  -15.0000  (    7)  -15.0000  (    8)    0.0000      

(    9)    -.7698  




    VOLTAGE SOURCE CURRENTS
    NAME         CURRENT

    Vin          0.000E+00
    Vcc         -6.722E-04

    TOTAL POWER DISSIPATION   1.01E-02  WATTS



          JOB CONCLUDED

          TOTAL JOB TIME             .22
