
**** 11/09/15 22:10:49 *********** Evaluation PSpice (Nov 1999) **************

 Single stage RC coupled bjt amplifier(pnp)


 ****     CIRCUIT DESCRIPTION


******************************************************************************




Q1 6 3 5 Q2N3906
Rc 4 6 10k
R1 4 3 3k
R2 3 0 47k
Re 5 0 2k
Rs 2 1 500
RL 7 0 20k
Cc1 2 3 1u
Cc2 6 7 1u
Ce 5 0 10u
Vcc 0 4 15
Vin 1 0 ac 10mv sin(0 10mv 1k)

.tran 50u 2m 50u
.ac dec 10 10 20k
.lib nom.lib
.probe
.end

**** 11/09/15 22:10:49 *********** Evaluation PSpice (Nov 1999) **************

 Single stage RC coupled bjt amplifier(pnp)


 ****     BJT MODEL PARAMETERS


******************************************************************************




               Q2N3906         
               PNP             
          IS    1.410000E-15 
          BF  180.7          
          NF    1            
         VAF   18.7          
         IKF     .08         
          BR    4.977        
          NR    1            
          RB   10            
          RC    2.5          
         CJE    8.063000E-12 
         MJE     .3677       
         CJC    9.728000E-12 
         MJC     .5776       
          TF  179.300000E-12 
         XTF    6            
         VTF    4            
         ITF     .4          
          TR   33.420000E-09 
         XTB    1.5          
          CN    2.2          
           D     .52         


**** 11/09/15 22:10:49 *********** Evaluation PSpice (Nov 1999) **************

 Single stage RC coupled bjt amplifier(pnp)


 ****     SMALL SIGNAL BIAS SOLUTION       TEMPERATURE =   27.000 DEG C


******************************************************************************



 NODE   VOLTAGE     NODE   VOLTAGE     NODE   VOLTAGE     NODE   VOLTAGE


(    1)    0.0000  (    2)    0.0000  (    3)   -7.3113  (    4)  -15.0000      

(    5)   -6.5107  (    6)   -6.5202  (    7)    0.0000  




    VOLTAGE SOURCE CURRENTS
    NAME         CURRENT

    Vcc         -3.411E-03
    Vin          0.000E+00

    TOTAL POWER DISSIPATION   5.12E-02  WATTS


**** 11/09/15 22:10:49 *********** Evaluation PSpice (Nov 1999) **************

 Single stage RC coupled bjt amplifier(pnp)


 ****     INITIAL TRANSIENT SOLUTION       TEMPERATURE =   27.000 DEG C


******************************************************************************



 NODE   VOLTAGE     NODE   VOLTAGE     NODE   VOLTAGE     NODE   VOLTAGE


(    1)    0.0000  (    2)    0.0000  (    3)   -7.3113  (    4)  -15.0000      

(    5)   -6.5107  (    6)   -6.5202  (    7)    0.0000  




    VOLTAGE SOURCE CURRENTS
    NAME         CURRENT

    Vcc         -3.411E-03
    Vin          0.000E+00

    TOTAL POWER DISSIPATION   5.12E-02  WATTS



          JOB CONCLUDED

          TOTAL JOB TIME             .03
