
**** 01/22/16 19:43:51 ****** PSpice Lite (October 2012) ****** ID# 10813 ****

 SCR Characteristics


 ****     CIRCUIT DESCRIPTION


******************************************************************************




X1 1 2 0 2N1595
Rl 5 1 500
R2 2 4 2k
V1 4 0 5

Vin 5 0 sin(0 12 50)
.tran 50u 100m 50u
.lib nom.lib
.probe
.end

INFO(ORPSIM-15423): Unable to find index file nom.ind for library file nom.lib.

INFO(ORPSIM-15422): Making new index file nom.ind for library file nom.lib.

Index has 33530 entries from 201 file(s).

**** 01/22/16 19:43:51 ****** PSpice Lite (October 2012) ****** ID# 10813 ****

 SCR Characteristics


 ****     Diode MODEL PARAMETERS


******************************************************************************




               X1.X1.Dgk       X1.X1.Dseries   X1.X1.Delay     X1.X1.Dkarev    
          IS  100.000000E-18   10.000000E-15    1.000000E-12  100.000000E-12 
          RS    5                                .01             .01         
         CJO   50.000000E-12                    5.000000E-12    5.000000E-12 


               X1.X1.Dakfwd    X1.X1.Dbreak    
          IS   40.000000E-12   10.000000E-15 
          BV                   55            
         IBV                  100.000000E-09 
          RS                     .5          
         CJO    5.000000E-12    5.000000E-12 


**** 01/22/16 19:43:51 ****** PSpice Lite (October 2012) ****** ID# 10813 ****

 SCR Characteristics


 ****     Voltage Controlled Switch MODEL PARAMETERS


******************************************************************************




               X1.X1.Vswitch   
         RON     .4          
        ROFF  454.545500E+03 
         VON    5            
        VOFF    1.5          


**** 01/22/16 19:43:51 ****** PSpice Lite (October 2012) ****** ID# 10813 ****

 SCR Characteristics


 ****     INITIAL TRANSIENT SOLUTION       TEMPERATURE =   27.000 DEG C


******************************************************************************



 NODE   VOLTAGE     NODE   VOLTAGE     NODE   VOLTAGE     NODE   VOLTAGE


(    1)    0.0000  (    2)     .7365  (    4)    5.0000  (    5)    0.0000      

(X1.X1.Itot) 53.29E-06                (X1.X1.prod)    0.0000                    

(X1.X1.dlay1) 105.4E-27               (X1.X1.dlay2)-464.4E-27                   

(X1.X1.dvdt0)    0.0000               (X1.X1.dvdt1)    0.0000                   

(X1.X1.dvdt2)    0.0000               (X1.X1.gate1)     .6832                   

(X1.X1.gate2)    0.0000               (X1.X1.gate4)    2.3174                   

(X1.X1.anode0)    0.0000              (X1.X1.anode2)    0.0000                  

(X1.X1.break1)-123.2E-18              (X1.X1.contot)    0.0000                  

(X1.X1.condvdt)    0.0000             (X1.X1.congate)    0.0000                 

(X1.X1.conmain)    0.0000             (X1.X1.control) 321.4E-21             




    VOLTAGE SOURCE CURRENTS
    NAME         CURRENT

    V1          -2.132E-03
    Vin          0.000E+00
    X1.X1.VIak   0.000E+00
    X1.X1.VdVdt   0.000E+00
    X1.X1.VIgf   2.132E-03

    TOTAL POWER DISSIPATION   1.07E-02  WATTS



          JOB CONCLUDED

**** 01/22/16 19:43:51 ****** PSpice Lite (October 2012) ****** ID# 10813 ****

 SCR Characteristics


 ****     JOB STATISTICS SUMMARY


******************************************************************************



  Total job time (using Solver 1)   =        9.64
