
**** 11/09/15 19:11:43 *********** Evaluation PSpice (Nov 1999) **************

 Voltage Divider Bias. Measure the bias point Ic and Vce


 ****     CIRCUIT DESCRIPTION


******************************************************************************




Q1 3 2 1 Q2N2222
Vcc 4 0 15V
R1 2 0 10k
R2 2 4 2k
Rc 3 4 5k
Re 1 0 1.5k

.op
.lib nom.lib
.probe
.end

**** 11/09/15 19:11:43 *********** Evaluation PSpice (Nov 1999) **************

 Voltage Divider Bias. Measure the bias point Ic and Vce


 ****     BJT MODEL PARAMETERS


******************************************************************************




               Q2N2222         
               NPN             
          IS   14.340000E-15 
          BF  255.9          
          NF    1            
         VAF   74.03         
         IKF     .2847       
         ISE   14.340000E-15 
          NE    1.307        
          BR    6.092        
          NR    1            
          RB   10            
          RC    1            
         CJE   22.010000E-12 
         MJE     .377        
         CJC    7.306000E-12 
         MJC     .3416       
          TF  411.100000E-12 
         XTF    3            
         VTF    1.7          
         ITF     .6          
          TR   46.910000E-09 
         XTB    1.5          
          CN    2.42         
           D     .87         


**** 11/09/15 19:11:43 *********** Evaluation PSpice (Nov 1999) **************

 Voltage Divider Bias. Measure the bias point Ic and Vce


 ****     SMALL SIGNAL BIAS SOLUTION       TEMPERATURE =   27.000 DEG C


******************************************************************************



 NODE   VOLTAGE     NODE   VOLTAGE     NODE   VOLTAGE     NODE   VOLTAGE


(    1)    6.8491  (    2)    7.6042  (    3)    6.8571  (    4)   15.0000  




    VOLTAGE SOURCE CURRENTS
    NAME         CURRENT

    Vcc         -5.326E-03

    TOTAL POWER DISSIPATION   7.99E-02  WATTS


**** 11/09/15 19:11:43 *********** Evaluation PSpice (Nov 1999) **************

 Voltage Divider Bias. Measure the bias point Ic and Vce


 ****     OPERATING POINT INFORMATION      TEMPERATURE =   27.000 DEG C


******************************************************************************






**** BIPOLAR JUNCTION TRANSISTORS


NAME         Q1        
MODEL        Q2N2222   
IB           2.94E-03 
IC           1.63E-03 
VBE          7.55E-01 
VBC          7.47E-01 
VCE          8.02E-03 
BETADC       5.54E-01 
GM           1.61E-01 
RPI          2.37E+02 
RX           1.00E+01 
RO           1.63E+00 
CBE          3.46E-10 
CBC          3.12E-08 
CJS          0.00E+00 
BETAAC       3.82E+01 
CBX/CBX2     0.00E+00 
FT/FT2       8.13E+05 



          JOB CONCLUDED

          TOTAL JOB TIME             .02
